
T72FC 000:444 SEGGER J-Link V4.80g Log File (0001ms, 0273ms total)
T72FC 000:444 DLL Compiled: Feb 13 2014 20:50:02 (0001ms, 0273ms total)
T72FC 000:444 Logging started @ 2016-03-29 11:47 (0001ms, 0273ms total)
T72FC 000:445 JLINK_SetWarnOutHandler(...) (0000ms, 0273ms total)
T72FC 000:445 JLINK_OpenEx(...)
Firmware: J-Link V9 compiled Jan 29 2015 11:26:22
Hardware: V9.20
Feature(s): GDB, RDI, FlashBP, FlashDL, JFlash  returns O.K. (0268ms, 0541ms total)
T72FC 000:713 JLINK_SetErrorOutHandler(...) (0000ms, 0541ms total)
T72FC 000:713 JLINK_ExecCommand("ProjectFile = "C:\Users\mrer\Desktop\毕设下位机编程\Project\MDK-ARM(uV4)\JLinkSettings.ini"", ...)  returns 0x00 (0001ms, 0542ms total)
T72FC 000:720 JLINK_ExecCommand("Device = STM32F407IG", ...)Device "STM32F407IG" selected (1024 KB flash, 128 KB RAM).  returns 0x00 (0009ms, 0551ms total)
T72FC 000:729 JLINK_ExecCommand("DisableConnectionTimeout", ...)  returns 0x01 (0000ms, 0551ms total)
T72FC 000:729 JLINK_GetHardwareVersion()  returns 0x16760 (0000ms, 0551ms total)
T72FC 000:729 JLINK_GetDLLVersion()  returns 48007 (0000ms, 0551ms total)
T72FC 000:729 JLINK_GetFirmwareString(...) (0000ms, 0551ms total)
T72FC 000:743 JLINK_GetDLLVersion()  returns 48007 (0000ms, 0551ms total)
T72FC 000:743 JLINK_GetCompileDateTime() (0000ms, 0551ms total)
T72FC 000:746 JLINK_GetFirmwareString(...) (0000ms, 0551ms total)
T72FC 000:751 JLINK_GetHardwareVersion()  returns 0x16760 (0000ms, 0551ms total)
T72FC 000:763 JLINK_TIF_Select(JLINKARM_TIF_SWD)  returns 0x00 (0004ms, 0555ms total)
T72FC 000:767 JLINK_SetSpeed(10000) (0002ms, 0557ms total)
T72FC 000:769 JLINK_GetId() >0x108 TIF>Found SWD-DP with ID 0x2BA01477 >0x0D TIF> >0x28 TIF> >0x0D TIF> >0x28 TIF> >0x0D TIF> >0x21 TIF> >0x0D TIF> >0x28 TIF> >0x0D TIF> >0x28 TIF> >0x0D TIF> >0x28 TIF> >0x0D TIF> >0x21 TIF> >0x0D TIF> >0x21 TIF> >0x0D TIF> >0x28 TIF> >0x0D TIF> >0x21 TIF> >0x0D TIF> >0x21 TIF> >0x0D TIF> >0x28 TIF> >0x0D TIF> >0x21 TIF> >0x0D TIF> >0x21 TIF> >0x108 TIF>Found SWD-DP with ID 0x2BA01477 >0x0D TIF> >0x21 TIF> >0x0D TIF> >0x28 TIF> >0x0D TIF> >0x28 TIF> >0x0D TIF> >0x21 TIF>
 >0x0D TIF> >0x28 TIF> >0x0D TIF> >0x21 TIF> >0x0D TIF> >0x21 TIF> >0x0D TIF> >0x21 TIF> >0x0D TIF> >0x21 TIF> >0x0D TIF> >0x28 TIF> >0x0D TIF> >0x28 TIF> >0x0D TIF> >0x21 TIF> >0x0D TIF> >0x28 TIF> >0x0D TIF> >0x28 TIF> >0x0D TIF> >0x28 TIF> >0x0D TIF> >0x21 TIF> >0x0D TIF> >0x21 TIF> >0x0D TIF> >0x28 TIF> >0x0D TIF> >0x21 TIF> >0x0D TIF> >0x21 TIF>Found Cortex-M4 r0p1, Little endian. -- CPU_WriteMem(4 bytes @ 0xE0002000) -- CPU_ReadMem(4 bytes @ 0xE000EDF0) -- CPU_ReadMem(4 bytes @ 0xE0002000)
FPUnit: 6 code (BP) slots and 2 literal slots -- CPU_ReadMem(4 bytes @ 0xE000EDFC) -- CPU_ReadMem(4 bytes @ 0xE0001000) -- CPU_WriteMem(4 bytes @ 0xE0001000) -- CPU_ReadMem(4 bytes @ 0xE00FF010)TPIU fitted. -- CPU_ReadMem(4 bytes @ 0xE00FF014)ETM fitted. -- CPU_ReadMem(4 bytes @ 0xE00FF018) >0x0D TIF> >0x21 TIF>  returns 0x2BA01477 (0107ms, 0664ms total)
T72FC 000:876 JLINK_GetDeviceFamily()  returns 14 (0000ms, 0664ms total)
T72FC 000:880 JLINK_ReadMem (0xE00FFFF0, 0x0010 Bytes, ...) -- CPU is running -- CPU_ReadMem(16 bytes @ 0xE00FFFF0) -- Data:  0D 00 00 00 10 00 00 00 05 00 00 00 B1 00 00 00  returns 0x00 (0001ms, 0665ms total)
T72FC 000:881 JLINK_ReadMem (0xE00FFFD0, 0x0020 Bytes, ...) -- CPU is running -- CPU_ReadMem(32 bytes @ 0xE00FFFD0) -- Data:  00 00 00 00 00 00 00 00 00 00 00 00 00 00 00 00 ...  returns 0x00 (0001ms, 0666ms total)
T72FC 000:882 JLINK_ReadMem (0xE00FF000, 0x0018 Bytes, ...) -- CPU is running -- CPU_ReadMem(24 bytes @ 0xE00FF000) -- Data:  03 F0 F0 FF 03 20 F0 FF 03 30 F0 FF 03 10 F0 FF ...  returns 0x00 (0001ms, 0667ms total)
T72FC 000:883 JLINK_ReadMemU32(0xE000ED00, 0x0001 Items, ...) -- CPU is running -- CPU_ReadMem(4 bytes @ 0xE000ED00) -- Data:  41 C2 0F 41  returns 0x01 (0001ms, 0668ms total)
T72FC 000:884 JLINK_ReadMemU32(0xE000EF40, 0x0001 Items, ...) -- CPU is running -- CPU_ReadMem(4 bytes @ 0xE000EF40) -- Data:  21 00 11 10  returns 0x01 (0001ms, 0669ms total)
T72FC 000:885 JLINK_ReadMemU32(0xE000EF44, 0x0001 Items, ...) -- CPU is running -- CPU_ReadMem(4 bytes @ 0xE000EF44) -- Data:  11 00 00 11  returns 0x01 (0001ms, 0670ms total)
T72FC 000:886 JLINK_SetResetType(JLINKARM_RESET_TYPE_NORMAL)  returns JLINKARM_RESET_TYPE_NORMAL (0000ms, 0670ms total)
T72FC 000:886 JLINK_Reset() -- CPU is running -- CPU_WriteMem(4 bytes @ 0xE000EDF0) -- CPU is running -- CPU_WriteMem(4 bytes @ 0xE000EDFC) >0x35 TIF> -- CPU is running -- CPU_WriteMem(4 bytes @ 0xE000ED0C) -- CPU is running -- CPU_ReadMem(4 bytes @ 0xE000EDF0) -- CPU is running -- CPU_ReadMem(4 bytes @ 0xE000EDF0) -- CPU is running -- CPU_WriteMem(4 bytes @ 0xE000EDF0) -- CPU is running -- CPU_WriteMem(4 bytes @ 0xE000EDFC) -- CPU is running -- CPU_ReadMem(4 bytes @ 0xE000EDF0)
 -- CPU_WriteMem(4 bytes @ 0xE0002000) -- CPU_ReadMem(4 bytes @ 0xE000EDFC) -- CPU_ReadMem(4 bytes @ 0xE0001000) (0024ms, 0694ms total)
T72FC 000:910 JLINK_Halt()  returns 0x00 (0000ms, 0694ms total)
T72FC 000:910 JLINK_IsHalted()  returns TRUE (0000ms, 0694ms total)
T72FC 000:910 JLINK_ReadMemU32(0xE000EDF0, 0x0001 Items, ...) -- CPU_ReadMem(4 bytes @ 0xE000EDF0) -- Data:  03 00 03 00  returns 0x01 (0001ms, 0695ms total)
T72FC 000:911 JLINK_WriteU32(0xE000EDF0, 0xA05F0003) -- CPU_WriteMem(4 bytes @ 0xE000EDF0)  returns 0x00 (0001ms, 0696ms total)
T72FC 000:912 JLINK_WriteU32(0xE000EDFC, 0x01000000) -- CPU_WriteMem(4 bytes @ 0xE000EDFC)  returns 0x00 (0001ms, 0697ms total)
T72FC 000:933 JLINK_GetHWStatus(...)  returns 0x00 (0000ms, 0697ms total)
T72FC 000:944 JLINK_GetNumBPUnits(Type = 0xFFFFFF00)  returns 0x06 (0000ms, 0697ms total)
T72FC 000:944 JLINK_GetNumBPUnits(Type = 0xF0)  returns 0x2000 (0000ms, 0697ms total)
T72FC 000:944 JLINK_GetNumWPUnits()  returns 0x04 (0000ms, 0697ms total)
T72FC 000:953 JLINK_GetSpeed()  returns 0x1770 (0000ms, 0697ms total)
T72FC 000:961 JLINK_ReadMemU32(0xE000E004, 0x0001 Items, ...) -- CPU_ReadMem(4 bytes @ 0xE000E004) -- Data:  02 00 00 00  returns 0x01 (0000ms, 0697ms total)
T72FC 000:961 JLINK_ReadMemU32(0xE000E004, 0x0001 Items, ...) -- CPU_ReadMem(4 bytes @ 0xE000E004) -- Data:  02 00 00 00  returns 0x01 (0001ms, 0698ms total)
T72FC 000:962 JLINK_WriteMem(0xE0001000, 0x001C Bytes, ...) -- Data:  01 00 00 00 00 00 00 00 00 00 00 00 00 00 00 00 ... -- CPU_WriteMem(28 bytes @ 0xE0001000)  returns 0x1C (0001ms, 0699ms total)
T72FC 000:963 JLINK_ReadMem (0xE0001000, 0x001C Bytes, ...) -- CPU_ReadMem(28 bytes @ 0xE0001000) -- Data:  01 00 00 40 00 00 00 00 00 00 00 00 00 00 00 00 ...  returns 0x00 (0001ms, 0700ms total)
T72FC 000:964 JLINK_Halt()  returns 0x00 (0000ms, 0700ms total)
T72FC 000:964 JLINK_IsHalted()  returns TRUE (0000ms, 0700ms total)
T72FC 000:968 JLINK_WriteMem(0x20000000, 0x0180 Bytes, ...) -- Data:  00 BE 0A E0 0D 78 2D 06 68 40 08 24 40 00 00 D3 ... -- CPU_WriteMem(384 bytes @ 0x20000000)  returns 0x180 (0002ms, 0702ms total)
T72FC 000:970 JLINK_WriteReg(R0, 0x08000000)  returns 0x00 (0000ms, 0702ms total)
T72FC 000:970 JLINK_WriteReg(R1, 0x017D7840)  returns 0x00 (0000ms, 0702ms total)
T72FC 000:970 JLINK_WriteReg(R2, 0x00000001)  returns 0x00 (0000ms, 0702ms total)
T72FC 000:970 JLINK_WriteReg(R3, 0x00000000)  returns 0x00 (0000ms, 0702ms total)
T72FC 000:970 JLINK_WriteReg(R4, 0x00000000)  returns 0x00 (0000ms, 0702ms total)
T72FC 000:970 JLINK_WriteReg(R5, 0x00000000)  returns 0x00 (0000ms, 0702ms total)
T72FC 000:970 JLINK_WriteReg(R6, 0x00000000)  returns 0x00 (0001ms, 0703ms total)
T72FC 000:971 JLINK_WriteReg(R7, 0x00000000)  returns 0x00 (0000ms, 0703ms total)
T72FC 000:971 JLINK_WriteReg(R8, 0x00000000)  returns 0x00 (0000ms, 0703ms total)
T72FC 000:971 JLINK_WriteReg(R9, 0x2000017C)  returns 0x00 (0000ms, 0703ms total)
T72FC 000:971 JLINK_WriteReg(R10, 0x00000000)  returns 0x00 (0000ms, 0703ms total)
T72FC 000:971 JLINK_WriteReg(R11, 0x00000000)  returns 0x00 (0000ms, 0703ms total)
T72FC 000:971 JLINK_WriteReg(R12, 0x00000000)  returns 0x00 (0000ms, 0703ms total)
T72FC 000:971 JLINK_WriteReg(R13 (SP), 0x20000800)  returns 0x00 (0000ms, 0703ms total)
T72FC 000:971 JLINK_WriteReg(R14, 0x20000001)  returns 0x00 (0000ms, 0703ms total)
T72FC 000:971 JLINK_WriteReg(R15 (PC), 0x20000054)  returns 0x00 (0000ms, 0703ms total)
T72FC 000:971 JLINK_WriteReg(XPSR, 0x01000000)  returns 0x00 (0000ms, 0703ms total)
T72FC 000:971 JLINK_WriteReg(MSP, 0x20000800)  returns 0x00 (0000ms, 0703ms total)
T72FC 000:971 JLINK_WriteReg(PSP, 0x20000800)  returns 0x00 (0000ms, 0703ms total)
T72FC 000:971 JLINK_WriteReg(CFBP, 0x00000000)  returns 0x00 (0000ms, 0703ms total)
T72FC 000:971 JLINK_SetBPEx(Addr = 0x20000000, Type = 0xFFFFFFF2) -- CPU_ReadMem(2 bytes @ 0x20000000)  returns 0x00000001 (0001ms, 0704ms total)
T72FC 000:972 JLINK_Go() -- CPU_WriteMem(2 bytes @ 0x20000000) -- CPU_WriteMem(4 bytes @ 0xE0002008) -- CPU_WriteMem(4 bytes @ 0xE000200C) -- CPU_WriteMem(4 bytes @ 0xE0002010) -- CPU_WriteMem(4 bytes @ 0xE0002014) -- CPU_WriteMem(4 bytes @ 0xE0002018) -- CPU_WriteMem(4 bytes @ 0xE000201C) -- CPU_WriteMem(4 bytes @ 0xE0001004) (0010ms, 0714ms total)
T72FC 000:982 JLINK_IsHalted() -- CPU_ReadMem(2 bytes @ 0x20000000)  returns TRUE (0004ms, 0718ms total)
T72FC 000:986 JLINK_ReadReg(R15 (PC))  returns 0x20000000 (0000ms, 0714ms total)
T72FC 000:986 JLINK_ClrBPEx(BPHandle = 0x00000001)  returns 0x00 (0000ms, 0714ms total)
T72FC 000:986 JLINK_ReadReg(R0)  returns 0x00000000 (0000ms, 0714ms total)
T72FC 000:987 JLINK_WriteReg(R0, 0x08000000)  returns 0x00 (0000ms, 0714ms total)
T72FC 000:987 JLINK_WriteReg(R1, 0x00004000)  returns 0x00 (0000ms, 0714ms total)
T72FC 000:987 JLINK_WriteReg(R2, 0x000000FF)  returns 0x00 (0000ms, 0714ms total)
T72FC 000:987 JLINK_WriteReg(R3, 0x00000000)  returns 0x00 (0000ms, 0714ms total)
T72FC 000:987 JLINK_WriteReg(R4, 0x00000000)  returns 0x00 (0000ms, 0714ms total)
T72FC 000:987 JLINK_WriteReg(R5, 0x00000000)  returns 0x00 (0000ms, 0714ms total)
T72FC 000:987 JLINK_WriteReg(R6, 0x00000000)  returns 0x00 (0000ms, 0714ms total)
T72FC 000:987 JLINK_WriteReg(R7, 0x00000000)  returns 0x00 (0000ms, 0714ms total)
T72FC 000:987 JLINK_WriteReg(R8, 0x00000000)  returns 0x00 (0000ms, 0714ms total)
T72FC 000:987 JLINK_WriteReg(R9, 0x2000017C)  returns 0x00 (0000ms, 0714ms total)
T72FC 000:987 JLINK_WriteReg(R10, 0x00000000)  returns 0x00 (0000ms, 0714ms total)
T72FC 000:987 JLINK_WriteReg(R11, 0x00000000)  returns 0x00 (0000ms, 0714ms total)
T72FC 000:987 JLINK_WriteReg(R12, 0x00000000)  returns 0x00 (0000ms, 0714ms total)
T72FC 000:987 JLINK_WriteReg(R13 (SP), 0x20000800)  returns 0x00 (0000ms, 0714ms total)
T72FC 000:987 JLINK_WriteReg(R14, 0x20000001)  returns 0x00 (0000ms, 0714ms total)
T72FC 000:987 JLINK_WriteReg(R15 (PC), 0x20000020)  returns 0x00 (0000ms, 0714ms total)
T72FC 000:987 JLINK_WriteReg(XPSR, 0x01000000)  returns 0x00 (0000ms, 0714ms total)
T72FC 000:987 JLINK_WriteReg(MSP, 0x20000800)  returns 0x00 (0000ms, 0714ms total)
T72FC 000:987 JLINK_WriteReg(PSP, 0x20000800)  returns 0x00 (0000ms, 0714ms total)
T72FC 000:987 JLINK_WriteReg(CFBP, 0x00000000)  returns 0x00 (0000ms, 0714ms total)
T72FC 000:987 JLINK_SetBPEx(Addr = 0x20000000, Type = 0xFFFFFFF2)  returns 0x00000002 (0000ms, 0714ms total)
T72FC 000:987 JLINK_Go() (0002ms, 0716ms total)
T72FC 000:989 JLINK_IsHalted() -- CPU_ReadMem(2 bytes @ 0x20000000)  returns TRUE (0004ms, 0720ms total)
T72FC 000:993 JLINK_ReadReg(R15 (PC))  returns 0x20000000 (0000ms, 0716ms total)
T72FC 000:993 JLINK_ClrBPEx(BPHandle = 0x00000002)  returns 0x00 (0000ms, 0716ms total)
T72FC 000:993 JLINK_ReadReg(R0)  returns 0x00000001 (0000ms, 0716ms total)
T72FC 000:993 JLINK_WriteReg(R0, 0x08000000)  returns 0x00 (0000ms, 0716ms total)
T72FC 000:993 JLINK_WriteReg(R1, 0x00004000)  returns 0x00 (0000ms, 0716ms total)
T72FC 000:993 JLINK_WriteReg(R2, 0x000000FF)  returns 0x00 (0000ms, 0716ms total)
T72FC 000:993 JLINK_WriteReg(R3, 0x00000000)  returns 0x00 (0000ms, 0716ms total)
T72FC 000:993 JLINK_WriteReg(R4, 0x00000000)  returns 0x00 (0001ms, 0717ms total)
T72FC 000:994 JLINK_WriteReg(R5, 0x00000000)  returns 0x00 (0000ms, 0717ms total)
T72FC 000:994 JLINK_WriteReg(R6, 0x00000000)  returns 0x00 (0000ms, 0717ms total)
T72FC 000:994 JLINK_WriteReg(R7, 0x00000000)  returns 0x00 (0000ms, 0717ms total)
T72FC 000:994 JLINK_WriteReg(R8, 0x00000000)  returns 0x00 (0000ms, 0717ms total)
T72FC 000:994 JLINK_WriteReg(R9, 0x2000017C)  returns 0x00 (0000ms, 0717ms total)
T72FC 000:994 JLINK_WriteReg(R10, 0x00000000)  returns 0x00 (0000ms, 0717ms total)
T72FC 000:994 JLINK_WriteReg(R11, 0x00000000)  returns 0x00 (0000ms, 0717ms total)
T72FC 000:994 JLINK_WriteReg(R12, 0x00000000)  returns 0x00 (0000ms, 0717ms total)
T72FC 000:994 JLINK_WriteReg(R13 (SP), 0x20000800)  returns 0x00 (0000ms, 0717ms total)
T72FC 000:994 JLINK_WriteReg(R14, 0x20000001)  returns 0x00 (0000ms, 0717ms total)
T72FC 000:994 JLINK_WriteReg(R15 (PC), 0x200000BC)  returns 0x00 (0000ms, 0717ms total)
T72FC 000:994 JLINK_WriteReg(XPSR, 0x01000000)  returns 0x00 (0000ms, 0717ms total)
T72FC 000:994 JLINK_WriteReg(MSP, 0x20000800)  returns 0x00 (0000ms, 0717ms total)
T72FC 000:994 JLINK_WriteReg(PSP, 0x20000800)  returns 0x00 (0000ms, 0717ms total)
T72FC 000:994 JLINK_WriteReg(CFBP, 0x00000000)  returns 0x00 (0000ms, 0717ms total)
T72FC 000:994 JLINK_SetBPEx(Addr = 0x20000000, Type = 0xFFFFFFF2)  returns 0x00000003 (0000ms, 0717ms total)
T72FC 000:994 JLINK_Go() (0002ms, 0719ms total)
T72FC 000:996 JLINK_IsHalted()  returns FALSE (0001ms, 0720ms total)
T72FC 001:112 JLINK_IsHalted()  returns FALSE (0002ms, 0721ms total)
T72FC 001:181 JLINK_IsHalted()  returns FALSE (0000ms, 0719ms total)
T72FC 001:183 JLINK_IsHalted()  returns FALSE (0000ms, 0719ms total)
T72FC 001:185 JLINK_IsHalted()  returns FALSE (0000ms, 0719ms total)
T72FC 001:206 JLINK_IsHalted()  returns FALSE (0001ms, 0720ms total)
T72FC 001:208 JLINK_IsHalted()  returns FALSE (0001ms, 0720ms total)
T72FC 001:210 JLINK_IsHalted()  returns FALSE (0001ms, 0720ms total)
T72FC 001:212 JLINK_IsHalted()  returns FALSE (0001ms, 0720ms total)
T72FC 001:214 JLINK_IsHalted()  returns FALSE (0001ms, 0720ms total)
T72FC 001:216 JLINK_IsHalted()  returns FALSE (0001ms, 0720ms total)
T72FC 001:227 JLINK_IsHalted()  returns FALSE (0000ms, 0719ms total)
T72FC 001:229 JLINK_IsHalted()  returns FALSE (0000ms, 0719ms total)
T72FC 001:231 JLINK_IsHalted()  returns FALSE (0000ms, 0719ms total)
T72FC 001:247 JLINK_IsHalted()  returns FALSE (0000ms, 0719ms total)
T72FC 001:261 JLINK_IsHalted()  returns FALSE (0000ms, 0719ms total)
T72FC 001:276 JLINK_IsHalted()  returns FALSE (0000ms, 0719ms total)
T72FC 001:285 JLINK_IsHalted()  returns FALSE (0000ms, 0719ms total)
T72FC 001:287 JLINK_IsHalted()  returns FALSE (0000ms, 0719ms total)
T72FC 001:289 JLINK_IsHalted()  returns FALSE (0000ms, 0719ms total)
T72FC 001:291 JLINK_IsHalted()  returns FALSE (0000ms, 0719ms total)
T72FC 001:293 JLINK_IsHalted()  returns FALSE (0000ms, 0719ms total)
T72FC 001:305 JLINK_IsHalted()  returns FALSE (0001ms, 0720ms total)
T72FC 001:307 JLINK_IsHalted()  returns FALSE (0001ms, 0720ms total)
T72FC 001:316 JLINK_IsHalted()  returns FALSE (0001ms, 0720ms total)
T72FC 001:318 JLINK_IsHalted()  returns FALSE (0001ms, 0720ms total)
T72FC 001:320 JLINK_IsHalted()  returns FALSE (0000ms, 0719ms total)
T72FC 001:322 JLINK_IsHalted()  returns FALSE (0000ms, 0719ms total)
T72FC 001:324 JLINK_IsHalted()  returns FALSE (0000ms, 0719ms total)
T72FC 001:333 JLINK_IsHalted() -- CPU_ReadMem(2 bytes @ 0x20000000)  returns TRUE (0003ms, 0722ms total)
T72FC 001:336 JLINK_ReadReg(R15 (PC))  returns 0x20000000 (0000ms, 0719ms total)
T72FC 001:336 JLINK_ClrBPEx(BPHandle = 0x00000003)  returns 0x00 (0000ms, 0719ms total)
T72FC 001:336 JLINK_ReadReg(R0)  returns 0x00000000 (0000ms, 0719ms total)
T72FC 001:337 JLINK_WriteReg(R0, 0x00000001)  returns 0x00 (0000ms, 0719ms total)
T72FC 001:337 JLINK_WriteReg(R1, 0x00004000)  returns 0x00 (0000ms, 0719ms total)
T72FC 001:337 JLINK_WriteReg(R2, 0x000000FF)  returns 0x00 (0000ms, 0719ms total)
T72FC 001:337 JLINK_WriteReg(R3, 0x00000000)  returns 0x00 (0000ms, 0719ms total)
T72FC 001:337 JLINK_WriteReg(R4, 0x00000000)  returns 0x00 (0000ms, 0719ms total)
T72FC 001:337 JLINK_WriteReg(R5, 0x00000000)  returns 0x00 (0000ms, 0719ms total)
T72FC 001:337 JLINK_WriteReg(R6, 0x00000000)  returns 0x00 (0000ms, 0719ms total)
T72FC 001:337 JLINK_WriteReg(R7, 0x00000000)  returns 0x00 (0000ms, 0719ms total)
T72FC 001:337 JLINK_WriteReg(R8, 0x00000000)  returns 0x00 (0000ms, 0719ms total)
T72FC 001:337 JLINK_WriteReg(R9, 0x2000017C)  returns 0x00 (0000ms, 0719ms total)
T72FC 001:337 JLINK_WriteReg(R10, 0x00000000)  returns 0x00 (0000ms, 0719ms total)
T72FC 001:337 JLINK_WriteReg(R11, 0x00000000)  returns 0x00 (0000ms, 0719ms total)
T72FC 001:337 JLINK_WriteReg(R12, 0x00000000)  returns 0x00 (0000ms, 0719ms total)
T72FC 001:337 JLINK_WriteReg(R13 (SP), 0x20000800)  returns 0x00 (0000ms, 0719ms total)
T72FC 001:337 JLINK_WriteReg(R14, 0x20000001)  returns 0x00 (0000ms, 0719ms total)
T72FC 001:337 JLINK_WriteReg(R15 (PC), 0x20000082)  returns 0x00 (0000ms, 0719ms total)
T72FC 001:337 JLINK_WriteReg(XPSR, 0x01000000)  returns 0x00 (0000ms, 0719ms total)
T72FC 001:337 JLINK_WriteReg(MSP, 0x20000800)  returns 0x00 (0000ms, 0719ms total)
T72FC 001:337 JLINK_WriteReg(PSP, 0x20000800)  returns 0x00 (0000ms, 0719ms total)
T72FC 001:337 JLINK_WriteReg(CFBP, 0x00000000)  returns 0x00 (0000ms, 0719ms total)
T72FC 001:337 JLINK_SetBPEx(Addr = 0x20000000, Type = 0xFFFFFFF2)  returns 0x00000004 (0000ms, 0719ms total)
T72FC 001:337 JLINK_Go() (0002ms, 0721ms total)
T72FC 001:339 JLINK_IsHalted() -- CPU_ReadMem(2 bytes @ 0x20000000)  returns TRUE (0004ms, 0725ms total)
T72FC 001:343 JLINK_ReadReg(R15 (PC))  returns 0x20000000 (0000ms, 0721ms total)
T72FC 001:343 JLINK_ClrBPEx(BPHandle = 0x00000004)  returns 0x00 (0000ms, 0721ms total)
T72FC 001:343 JLINK_ReadReg(R0)  returns 0x00000000 (0000ms, 0721ms total)
T72FC 001:401 JLINK_WriteMem(0x20000000, 0x0180 Bytes, ...) -- Data:  00 BE 0A E0 0D 78 2D 06 68 40 08 24 40 00 00 D3 ... -- CPU_WriteMem(384 bytes @ 0x20000000)  returns 0x180 (0004ms, 0725ms total)
T72FC 001:405 JLINK_WriteReg(R0, 0x08000000)  returns 0x00 (0000ms, 0725ms total)
T72FC 001:405 JLINK_WriteReg(R1, 0x017D7840)  returns 0x00 (0000ms, 0725ms total)
T72FC 001:405 JLINK_WriteReg(R2, 0x00000002)  returns 0x00 (0000ms, 0725ms total)
T72FC 001:405 JLINK_WriteReg(R3, 0x00000000)  returns 0x00 (0000ms, 0725ms total)
T72FC 001:405 JLINK_WriteReg(R4, 0x00000000)  returns 0x00 (0000ms, 0725ms total)
T72FC 001:405 JLINK_WriteReg(R5, 0x00000000)  returns 0x00 (0000ms, 0725ms total)
T72FC 001:405 JLINK_WriteReg(R6, 0x00000000)  returns 0x00 (0000ms, 0725ms total)
T72FC 001:405 JLINK_WriteReg(R7, 0x00000000)  returns 0x00 (0000ms, 0725ms total)
T72FC 001:405 JLINK_WriteReg(R8, 0x00000000)  returns 0x00 (0000ms, 0725ms total)
T72FC 001:405 JLINK_WriteReg(R9, 0x2000017C)  returns 0x00 (0000ms, 0725ms total)
T72FC 001:405 JLINK_WriteReg(R10, 0x00000000)  returns 0x00 (0000ms, 0725ms total)
T72FC 001:405 JLINK_WriteReg(R11, 0x00000000)  returns 0x00 (0000ms, 0725ms total)
T72FC 001:405 JLINK_WriteReg(R12, 0x00000000)  returns 0x00 (0000ms, 0725ms total)
T72FC 001:405 JLINK_WriteReg(R13 (SP), 0x20000800)  returns 0x00 (0000ms, 0725ms total)
T72FC 001:405 JLINK_WriteReg(R14, 0x20000001)  returns 0x00 (0000ms, 0725ms total)
T72FC 001:405 JLINK_WriteReg(R15 (PC), 0x20000054)  returns 0x00 (0000ms, 0725ms total)
T72FC 001:405 JLINK_WriteReg(XPSR, 0x01000000)  returns 0x00 (0000ms, 0725ms total)
T72FC 001:405 JLINK_WriteReg(MSP, 0x20000800)  returns 0x00 (0000ms, 0725ms total)
T72FC 001:405 JLINK_WriteReg(PSP, 0x20000800)  returns 0x00 (0000ms, 0725ms total)
T72FC 001:405 JLINK_WriteReg(CFBP, 0x00000000)  returns 0x00 (0000ms, 0725ms total)
T72FC 001:405 JLINK_SetBPEx(Addr = 0x20000000, Type = 0xFFFFFFF2) -- CPU_ReadMem(2 bytes @ 0x20000000)  returns 0x00000005 (0001ms, 0726ms total)
T72FC 001:406 JLINK_Go() -- CPU_WriteMem(2 bytes @ 0x20000000) (0003ms, 0729ms total)
T72FC 001:409 JLINK_IsHalted() -- CPU_ReadMem(2 bytes @ 0x20000000)  returns TRUE (0004ms, 0733ms total)
T72FC 001:413 JLINK_ReadReg(R15 (PC))  returns 0x20000000 (0000ms, 0729ms total)
T72FC 001:413 JLINK_ClrBPEx(BPHandle = 0x00000005)  returns 0x00 (0000ms, 0729ms total)
T72FC 001:413 JLINK_ReadReg(R0)  returns 0x00000000 (0000ms, 0729ms total)
T72FC 001:413 JLINK_WriteMem(0x20000180, 0x0400 Bytes, ...) -- Data:  60 72 00 20 9D 01 00 08 53 0C 00 08 25 08 00 08 ... -- CPU_WriteMem(1024 bytes @ 0x20000180)  returns 0x400 (0005ms, 0734ms total)
T72FC 001:418 JLINK_WriteReg(R0, 0x08000000)  returns 0x00 (0000ms, 0734ms total)
T72FC 001:418 JLINK_WriteReg(R1, 0x00000400)  returns 0x00 (0000ms, 0734ms total)
T72FC 001:418 JLINK_WriteReg(R2, 0x20000180)  returns 0x00 (0000ms, 0734ms total)
T72FC 001:418 JLINK_WriteReg(R3, 0x00000000)  returns 0x00 (0000ms, 0734ms total)
T72FC 001:418 JLINK_WriteReg(R4, 0x00000000)  returns 0x00 (0000ms, 0734ms total)
T72FC 001:418 JLINK_WriteReg(R5, 0x00000000)  returns 0x00 (0000ms, 0734ms total)
T72FC 001:418 JLINK_WriteReg(R6, 0x00000000)  returns 0x00 (0000ms, 0734ms total)
T72FC 001:418 JLINK_WriteReg(R7, 0x00000000)  returns 0x00 (0000ms, 0734ms total)
T72FC 001:418 JLINK_WriteReg(R8, 0x00000000)  returns 0x00 (0000ms, 0734ms total)
T72FC 001:418 JLINK_WriteReg(R9, 0x2000017C)  returns 0x00 (0000ms, 0734ms total)
T72FC 001:418 JLINK_WriteReg(R10, 0x00000000)  returns 0x00 (0000ms, 0734ms total)
T72FC 001:418 JLINK_WriteReg(R11, 0x00000000)  returns 0x00 (0000ms, 0734ms total)
T72FC 001:418 JLINK_WriteReg(R12, 0x00000000)  returns 0x00 (0000ms, 0734ms total)
T72FC 001:418 JLINK_WriteReg(R13 (SP), 0x20000800)  returns 0x00 (0000ms, 0734ms total)
T72FC 001:418 JLINK_WriteReg(R14, 0x20000001)  returns 0x00 (0000ms, 0734ms total)
T72FC 001:418 JLINK_WriteReg(R15 (PC), 0x20000108)  returns 0x00 (0000ms, 0734ms total)
T72FC 001:418 JLINK_WriteReg(XPSR, 0x01000000)  returns 0x00 (0000ms, 0734ms total)
T72FC 001:418 JLINK_WriteReg(MSP, 0x20000800)  returns 0x00 (0000ms, 0734ms total)
T72FC 001:418 JLINK_WriteReg(PSP, 0x20000800)  returns 0x00 (0000ms, 0734ms total)
T72FC 001:418 JLINK_WriteReg(CFBP, 0x00000000)  returns 0x00 (0000ms, 0734ms total)
T72FC 001:418 JLINK_SetBPEx(Addr = 0x20000000, Type = 0xFFFFFFF2)  returns 0x00000006 (0000ms, 0734ms total)
T72FC 001:418 JLINK_Go() (0002ms, 0736ms total)
T72FC 001:420 JLINK_IsHalted()  returns FALSE (0001ms, 0737ms total)
T72FC 001:506 JLINK_IsHalted() -- CPU_ReadMem(2 bytes @ 0x20000000)  returns TRUE (0004ms, 0740ms total)
T72FC 001:510 JLINK_ReadReg(R15 (PC))  returns 0x20000000 (0000ms, 0736ms total)
T72FC 001:510 JLINK_ClrBPEx(BPHandle = 0x00000006)  returns 0x00 (0000ms, 0736ms total)
T72FC 001:510 JLINK_ReadReg(R0)  returns 0x00000000 (0000ms, 0736ms total)
T72FC 001:511 JLINK_WriteMem(0x20000180, 0x0400 Bytes, ...) -- Data:  B0 F9 0E 00 07 FB 07 F1 48 43 C4 15 28 48 B0 F9 ... -- CPU_WriteMem(1024 bytes @ 0x20000180)  returns 0x400 (0004ms, 0740ms total)
T72FC 001:515 JLINK_WriteReg(R0, 0x08000400)  returns 0x00 (0000ms, 0740ms total)
T72FC 001:515 JLINK_WriteReg(R1, 0x00000400)  returns 0x00 (0000ms, 0740ms total)
T72FC 001:515 JLINK_WriteReg(R2, 0x20000180)  returns 0x00 (0000ms, 0740ms total)
T72FC 001:515 JLINK_WriteReg(R3, 0x00000000)  returns 0x00 (0000ms, 0740ms total)
T72FC 001:515 JLINK_WriteReg(R4, 0x00000000)  returns 0x00 (0000ms, 0740ms total)
T72FC 001:515 JLINK_WriteReg(R5, 0x00000000)  returns 0x00 (0000ms, 0740ms total)
T72FC 001:515 JLINK_WriteReg(R6, 0x00000000)  returns 0x00 (0000ms, 0740ms total)
T72FC 001:515 JLINK_WriteReg(R7, 0x00000000)  returns 0x00 (0000ms, 0740ms total)
T72FC 001:515 JLINK_WriteReg(R8, 0x00000000)  returns 0x00 (0000ms, 0740ms total)
T72FC 001:515 JLINK_WriteReg(R9, 0x2000017C)  returns 0x00 (0000ms, 0740ms total)
T72FC 001:515 JLINK_WriteReg(R10, 0x00000000)  returns 0x00 (0000ms, 0740ms total)
T72FC 001:515 JLINK_WriteReg(R11, 0x00000000)  returns 0x00 (0000ms, 0740ms total)
T72FC 001:515 JLINK_WriteReg(R12, 0x00000000)  returns 0x00 (0000ms, 0740ms total)
T72FC 001:515 JLINK_WriteReg(R13 (SP), 0x20000800)  returns 0x00 (0000ms, 0740ms total)
T72FC 001:515 JLINK_WriteReg(R14, 0x20000001)  returns 0x00 (0000ms, 0740ms total)
T72FC 001:515 JLINK_WriteReg(R15 (PC), 0x20000108)  returns 0x00 (0000ms, 0740ms total)
T72FC 001:515 JLINK_WriteReg(XPSR, 0x01000000)  returns 0x00 (0000ms, 0740ms total)
T72FC 001:515 JLINK_WriteReg(MSP, 0x20000800)  returns 0x00 (0000ms, 0740ms total)
T72FC 001:515 JLINK_WriteReg(PSP, 0x20000800)  returns 0x00 (0000ms, 0740ms total)
T72FC 001:515 JLINK_WriteReg(CFBP, 0x00000000)  returns 0x00 (0000ms, 0740ms total)
T72FC 001:515 JLINK_SetBPEx(Addr = 0x20000000, Type = 0xFFFFFFF2)  returns 0x00000007 (0000ms, 0740ms total)
T72FC 001:515 JLINK_Go() (0003ms, 0743ms total)
T72FC 001:518 JLINK_IsHalted()  returns FALSE (0001ms, 0744ms total)
T72FC 001:536 JLINK_IsHalted() -- CPU_ReadMem(2 bytes @ 0x20000000)  returns TRUE (0003ms, 0746ms total)
T72FC 001:539 JLINK_ReadReg(R15 (PC))  returns 0x20000000 (0000ms, 0743ms total)
T72FC 001:539 JLINK_ClrBPEx(BPHandle = 0x00000007)  returns 0x00 (0000ms, 0743ms total)
T72FC 001:539 JLINK_ReadReg(R0)  returns 0x00000000 (0000ms, 0743ms total)
T72FC 001:540 JLINK_WriteMem(0x20000180, 0x0400 Bytes, ...) -- Data:  04 00 00 20 08 00 00 20 10 B5 01 F0 B7 FF FF F7 ... -- CPU_WriteMem(1024 bytes @ 0x20000180)  returns 0x400 (0004ms, 0747ms total)
T72FC 001:544 JLINK_WriteReg(R0, 0x08000800)  returns 0x00 (0000ms, 0747ms total)
T72FC 001:544 JLINK_WriteReg(R1, 0x00000400)  returns 0x00 (0000ms, 0747ms total)
T72FC 001:544 JLINK_WriteReg(R2, 0x20000180)  returns 0x00 (0000ms, 0747ms total)
T72FC 001:544 JLINK_WriteReg(R3, 0x00000000)  returns 0x00 (0000ms, 0747ms total)
T72FC 001:544 JLINK_WriteReg(R4, 0x00000000)  returns 0x00 (0000ms, 0747ms total)
T72FC 001:544 JLINK_WriteReg(R5, 0x00000000)  returns 0x00 (0000ms, 0747ms total)
T72FC 001:544 JLINK_WriteReg(R6, 0x00000000)  returns 0x00 (0000ms, 0747ms total)
T72FC 001:544 JLINK_WriteReg(R7, 0x00000000)  returns 0x00 (0000ms, 0747ms total)
T72FC 001:544 JLINK_WriteReg(R8, 0x00000000)  returns 0x00 (0000ms, 0747ms total)
T72FC 001:544 JLINK_WriteReg(R9, 0x2000017C)  returns 0x00 (0000ms, 0747ms total)
T72FC 001:544 JLINK_WriteReg(R10, 0x00000000)  returns 0x00 (0000ms, 0747ms total)
T72FC 001:545 JLINK_WriteReg(R11, 0x00000000)  returns 0x00 (0000ms, 0748ms total)
T72FC 001:545 JLINK_WriteReg(R12, 0x00000000)  returns 0x00 (0000ms, 0748ms total)
T72FC 001:545 JLINK_WriteReg(R13 (SP), 0x20000800)  returns 0x00 (0000ms, 0748ms total)
T72FC 001:545 JLINK_WriteReg(R14, 0x20000001)  returns 0x00 (0000ms, 0748ms total)
T72FC 001:545 JLINK_WriteReg(R15 (PC), 0x20000108)  returns 0x00 (0000ms, 0748ms total)
T72FC 001:545 JLINK_WriteReg(XPSR, 0x01000000)  returns 0x00 (0000ms, 0748ms total)
T72FC 001:545 JLINK_WriteReg(MSP, 0x20000800)  returns 0x00 (0000ms, 0748ms total)
T72FC 001:545 JLINK_WriteReg(PSP, 0x20000800)  returns 0x00 (0000ms, 0748ms total)
T72FC 001:545 JLINK_WriteReg(CFBP, 0x00000000)  returns 0x00 (0000ms, 0748ms total)
T72FC 001:545 JLINK_SetBPEx(Addr = 0x20000000, Type = 0xFFFFFFF2)  returns 0x00000008 (0000ms, 0748ms total)
T72FC 001:545 JLINK_Go() (0002ms, 0750ms total)
T72FC 001:547 JLINK_IsHalted()  returns FALSE (0001ms, 0751ms total)
T72FC 001:575 JLINK_IsHalted() -- CPU_ReadMem(2 bytes @ 0x20000000)  returns TRUE (0003ms, 0753ms total)
T72FC 001:578 JLINK_ReadReg(R15 (PC))  returns 0x20000000 (0000ms, 0750ms total)
T72FC 001:578 JLINK_ClrBPEx(BPHandle = 0x00000008)  returns 0x00 (0000ms, 0750ms total)
T72FC 001:578 JLINK_ReadReg(R0)  returns 0x00000000 (0000ms, 0750ms total)
T72FC 001:579 JLINK_WriteMem(0x20000180, 0x0400 Bytes, ...) -- Data:  FC E7 00 00 10 14 02 40 04 48 00 68 10 F0 80 0F ... -- CPU_WriteMem(1024 bytes @ 0x20000180)  returns 0x400 (0004ms, 0754ms total)
T72FC 001:583 JLINK_WriteReg(R0, 0x08000C00)  returns 0x00 (0000ms, 0754ms total)
T72FC 001:583 JLINK_WriteReg(R1, 0x00000400)  returns 0x00 (0000ms, 0754ms total)
T72FC 001:583 JLINK_WriteReg(R2, 0x20000180)  returns 0x00 (0000ms, 0754ms total)
T72FC 001:583 JLINK_WriteReg(R3, 0x00000000)  returns 0x00 (0000ms, 0754ms total)
T72FC 001:583 JLINK_WriteReg(R4, 0x00000000)  returns 0x00 (0000ms, 0754ms total)
T72FC 001:583 JLINK_WriteReg(R5, 0x00000000)  returns 0x00 (0000ms, 0754ms total)
T72FC 001:583 JLINK_WriteReg(R6, 0x00000000)  returns 0x00 (0000ms, 0754ms total)
T72FC 001:583 JLINK_WriteReg(R7, 0x00000000)  returns 0x00 (0000ms, 0754ms total)
T72FC 001:583 JLINK_WriteReg(R8, 0x00000000)  returns 0x00 (0000ms, 0754ms total)
T72FC 001:583 JLINK_WriteReg(R9, 0x2000017C)  returns 0x00 (0000ms, 0754ms total)
T72FC 001:583 JLINK_WriteReg(R10, 0x00000000)  returns 0x00 (0001ms, 0755ms total)
T72FC 001:584 JLINK_WriteReg(R11, 0x00000000)  returns 0x00 (0000ms, 0755ms total)
T72FC 001:584 JLINK_WriteReg(R12, 0x00000000)  returns 0x00 (0000ms, 0755ms total)
T72FC 001:584 JLINK_WriteReg(R13 (SP), 0x20000800)  returns 0x00 (0000ms, 0755ms total)
T72FC 001:584 JLINK_WriteReg(R14, 0x20000001)  returns 0x00 (0000ms, 0755ms total)
T72FC 001:584 JLINK_WriteReg(R15 (PC), 0x20000108)  returns 0x00 (0000ms, 0755ms total)
T72FC 001:584 JLINK_WriteReg(XPSR, 0x01000000)  returns 0x00 (0000ms, 0755ms total)
T72FC 001:584 JLINK_WriteReg(MSP, 0x20000800)  returns 0x00 (0000ms, 0755ms total)
T72FC 001:584 JLINK_WriteReg(PSP, 0x20000800)  returns 0x00 (0000ms, 0755ms total)
T72FC 001:584 JLINK_WriteReg(CFBP, 0x00000000)  returns 0x00 (0000ms, 0755ms total)
T72FC 001:584 JLINK_SetBPEx(Addr = 0x20000000, Type = 0xFFFFFFF2)  returns 0x00000009 (0000ms, 0755ms total)
T72FC 001:584 JLINK_Go() (0002ms, 0757ms total)
T72FC 001:586 JLINK_IsHalted()  returns FALSE (0001ms, 0758ms total)
T72FC 001:652 JLINK_IsHalted() -- CPU_ReadMem(2 bytes @ 0x20000000)  returns TRUE (0003ms, 0760ms total)
T72FC 001:655 JLINK_ReadReg(R15 (PC))  returns 0x20000000 (0000ms, 0757ms total)
T72FC 001:655 JLINK_ClrBPEx(BPHandle = 0x00000009)  returns 0x00 (0000ms, 0757ms total)
T72FC 001:655 JLINK_ReadReg(R0)  returns 0x00000000 (0000ms, 0757ms total)
T72FC 001:656 JLINK_WriteMem(0x20000180, 0x0400 Bytes, ...) -- Data:  08 38 02 40 FF FC FF 0F 38 B5 02 46 00 24 00 94 ... -- CPU_WriteMem(1024 bytes @ 0x20000180)  returns 0x400 (0004ms, 0761ms total)
T72FC 001:660 JLINK_WriteReg(R0, 0x08001000)  returns 0x00 (0000ms, 0761ms total)
T72FC 001:660 JLINK_WriteReg(R1, 0x00000400)  returns 0x00 (0000ms, 0761ms total)
T72FC 001:660 JLINK_WriteReg(R2, 0x20000180)  returns 0x00 (0000ms, 0761ms total)
T72FC 001:660 JLINK_WriteReg(R3, 0x00000000)  returns 0x00 (0000ms, 0761ms total)
T72FC 001:660 JLINK_WriteReg(R4, 0x00000000)  returns 0x00 (0000ms, 0761ms total)
T72FC 001:660 JLINK_WriteReg(R5, 0x00000000)  returns 0x00 (0000ms, 0761ms total)
T72FC 001:660 JLINK_WriteReg(R6, 0x00000000)  returns 0x00 (0000ms, 0761ms total)
T72FC 001:660 JLINK_WriteReg(R7, 0x00000000)  returns 0x00 (0000ms, 0761ms total)
T72FC 001:660 JLINK_WriteReg(R8, 0x00000000)  returns 0x00 (0000ms, 0761ms total)
T72FC 001:660 JLINK_WriteReg(R9, 0x2000017C)  returns 0x00 (0000ms, 0761ms total)
T72FC 001:660 JLINK_WriteReg(R10, 0x00000000)  returns 0x00 (0000ms, 0761ms total)
T72FC 001:660 JLINK_WriteReg(R11, 0x00000000)  returns 0x00 (0001ms, 0762ms total)
T72FC 001:661 JLINK_WriteReg(R12, 0x00000000)  returns 0x00 (0000ms, 0762ms total)
T72FC 001:661 JLINK_WriteReg(R13 (SP), 0x20000800)  returns 0x00 (0000ms, 0762ms total)
T72FC 001:661 JLINK_WriteReg(R14, 0x20000001)  returns 0x00 (0000ms, 0762ms total)
T72FC 001:661 JLINK_WriteReg(R15 (PC), 0x20000108)  returns 0x00 (0000ms, 0762ms total)
T72FC 001:661 JLINK_WriteReg(XPSR, 0x01000000)  returns 0x00 (0000ms, 0762ms total)
T72FC 001:661 JLINK_WriteReg(MSP, 0x20000800)  returns 0x00 (0000ms, 0762ms total)
T72FC 001:661 JLINK_WriteReg(PSP, 0x20000800)  returns 0x00 (0000ms, 0762ms total)
T72FC 001:661 JLINK_WriteReg(CFBP, 0x00000000)  returns 0x00 (0000ms, 0762ms total)
T72FC 001:661 JLINK_SetBPEx(Addr = 0x20000000, Type = 0xFFFFFFF2)  returns 0x0000000A (0000ms, 0762ms total)
T72FC 001:661 JLINK_Go() (0002ms, 0764ms total)
T72FC 001:663 JLINK_IsHalted()  returns FALSE (0001ms, 0765ms total)
T72FC 001:752 JLINK_IsHalted() -- CPU_ReadMem(2 bytes @ 0x20000000)  returns TRUE (0003ms, 0767ms total)
T72FC 001:755 JLINK_ReadReg(R15 (PC))  returns 0x20000000 (0000ms, 0764ms total)
T72FC 001:755 JLINK_ClrBPEx(BPHandle = 0x0000000A)  returns 0x00 (0000ms, 0764ms total)
T72FC 001:755 JLINK_ReadReg(R0)  returns 0x00000000 (0000ms, 0764ms total)
T72FC 001:756 JLINK_WriteMem(0x20000180, 0x0400 Bytes, ...) -- Data:  65 B9 36 48 00 68 10 F0 40 0F 00 D0 02 E0 00 20 ... -- CPU_WriteMem(1024 bytes @ 0x20000180)  returns 0x400 (0004ms, 0768ms total)
T72FC 001:760 JLINK_WriteReg(R0, 0x08001400)  returns 0x00 (0000ms, 0768ms total)
T72FC 001:760 JLINK_WriteReg(R1, 0x00000400)  returns 0x00 (0000ms, 0768ms total)
T72FC 001:760 JLINK_WriteReg(R2, 0x20000180)  returns 0x00 (0000ms, 0768ms total)
T72FC 001:760 JLINK_WriteReg(R3, 0x00000000)  returns 0x00 (0000ms, 0768ms total)
T72FC 001:760 JLINK_WriteReg(R4, 0x00000000)  returns 0x00 (0000ms, 0768ms total)
T72FC 001:760 JLINK_WriteReg(R5, 0x00000000)  returns 0x00 (0000ms, 0768ms total)
T72FC 001:760 JLINK_WriteReg(R6, 0x00000000)  returns 0x00 (0000ms, 0768ms total)
T72FC 001:760 JLINK_WriteReg(R7, 0x00000000)  returns 0x00 (0000ms, 0768ms total)
T72FC 001:760 JLINK_WriteReg(R8, 0x00000000)  returns 0x00 (0000ms, 0768ms total)
T72FC 001:760 JLINK_WriteReg(R9, 0x2000017C)  returns 0x00 (0000ms, 0768ms total)
T72FC 001:760 JLINK_WriteReg(R10, 0x00000000)  returns 0x00 (0001ms, 0769ms total)
T72FC 001:761 JLINK_WriteReg(R11, 0x00000000)  returns 0x00 (0000ms, 0769ms total)
T72FC 001:761 JLINK_WriteReg(R12, 0x00000000)  returns 0x00 (0000ms, 0769ms total)
T72FC 001:761 JLINK_WriteReg(R13 (SP), 0x20000800)  returns 0x00 (0000ms, 0769ms total)
T72FC 001:761 JLINK_WriteReg(R14, 0x20000001)  returns 0x00 (0000ms, 0769ms total)
T72FC 001:761 JLINK_WriteReg(R15 (PC), 0x20000108)  returns 0x00 (0000ms, 0769ms total)
T72FC 001:761 JLINK_WriteReg(XPSR, 0x01000000)  returns 0x00 (0000ms, 0769ms total)
T72FC 001:761 JLINK_WriteReg(MSP, 0x20000800)  returns 0x00 (0000ms, 0769ms total)
T72FC 001:761 JLINK_WriteReg(PSP, 0x20000800)  returns 0x00 (0000ms, 0769ms total)
T72FC 001:761 JLINK_WriteReg(CFBP, 0x00000000)  returns 0x00 (0000ms, 0769ms total)
T72FC 001:761 JLINK_SetBPEx(Addr = 0x20000000, Type = 0xFFFFFFF2)  returns 0x0000000B (0000ms, 0769ms total)
T72FC 001:761 JLINK_Go() (0002ms, 0771ms total)
T72FC 001:763 JLINK_IsHalted()  returns FALSE (0001ms, 0772ms total)
T72FC 001:775 JLINK_IsHalted() -- CPU_ReadMem(2 bytes @ 0x20000000)  returns TRUE (0003ms, 0774ms total)
T72FC 001:778 JLINK_ReadReg(R15 (PC))  returns 0x20000000 (0000ms, 0771ms total)
T72FC 001:778 JLINK_ClrBPEx(BPHandle = 0x0000000B)  returns 0x00 (0000ms, 0771ms total)
T72FC 001:778 JLINK_ReadReg(R0)  returns 0x00000000 (0000ms, 0771ms total)
T72FC 001:779 JLINK_WriteMem(0x20000180, 0x0400 Bytes, ...) -- Data:  20 48 00 68 40 F4 40 40 1E 49 08 60 1C 48 08 30 ... -- CPU_WriteMem(1024 bytes @ 0x20000180)  returns 0x400 (0004ms, 0775ms total)
T72FC 001:783 JLINK_WriteReg(R0, 0x08001800)  returns 0x00 (0000ms, 0775ms total)
T72FC 001:783 JLINK_WriteReg(R1, 0x00000400)  returns 0x00 (0000ms, 0775ms total)
T72FC 001:783 JLINK_WriteReg(R2, 0x20000180)  returns 0x00 (0000ms, 0775ms total)
T72FC 001:783 JLINK_WriteReg(R3, 0x00000000)  returns 0x00 (0000ms, 0775ms total)
T72FC 001:783 JLINK_WriteReg(R4, 0x00000000)  returns 0x00 (0000ms, 0775ms total)
T72FC 001:783 JLINK_WriteReg(R5, 0x00000000)  returns 0x00 (0000ms, 0775ms total)
T72FC 001:783 JLINK_WriteReg(R6, 0x00000000)  returns 0x00 (0000ms, 0775ms total)
T72FC 001:783 JLINK_WriteReg(R7, 0x00000000)  returns 0x00 (0000ms, 0775ms total)
T72FC 001:783 JLINK_WriteReg(R8, 0x00000000)  returns 0x00 (0000ms, 0775ms total)
T72FC 001:783 JLINK_WriteReg(R9, 0x2000017C)  returns 0x00 (0000ms, 0775ms total)
T72FC 001:783 JLINK_WriteReg(R10, 0x00000000)  returns 0x00 (0000ms, 0775ms total)
T72FC 001:783 JLINK_WriteReg(R11, 0x00000000)  returns 0x00 (0001ms, 0776ms total)
T72FC 001:784 JLINK_WriteReg(R12, 0x00000000)  returns 0x00 (0000ms, 0776ms total)
T72FC 001:784 JLINK_WriteReg(R13 (SP), 0x20000800)  returns 0x00 (0000ms, 0776ms total)
T72FC 001:784 JLINK_WriteReg(R14, 0x20000001)  returns 0x00 (0000ms, 0776ms total)
T72FC 001:784 JLINK_WriteReg(R15 (PC), 0x20000108)  returns 0x00 (0000ms, 0776ms total)
T72FC 001:784 JLINK_WriteReg(XPSR, 0x01000000)  returns 0x00 (0000ms, 0776ms total)
T72FC 001:784 JLINK_WriteReg(MSP, 0x20000800)  returns 0x00 (0000ms, 0776ms total)
T72FC 001:784 JLINK_WriteReg(PSP, 0x20000800)  returns 0x00 (0000ms, 0776ms total)
T72FC 001:784 JLINK_WriteReg(CFBP, 0x00000000)  returns 0x00 (0000ms, 0776ms total)
T72FC 001:784 JLINK_SetBPEx(Addr = 0x20000000, Type = 0xFFFFFFF2)  returns 0x0000000C (0000ms, 0776ms total)
T72FC 001:784 JLINK_Go() (0002ms, 0778ms total)
T72FC 001:786 JLINK_IsHalted()  returns FALSE (0001ms, 0779ms total)
T72FC 001:837 JLINK_IsHalted() -- CPU_ReadMem(2 bytes @ 0x20000000)  returns TRUE (0003ms, 0781ms total)
T72FC 001:840 JLINK_ReadReg(R15 (PC))  returns 0x20000000 (0000ms, 0778ms total)
T72FC 001:840 JLINK_ClrBPEx(BPHandle = 0x0000000C)  returns 0x00 (0000ms, 0778ms total)
T72FC 001:840 JLINK_ReadReg(R0)  returns 0x00000000 (0000ms, 0778ms total)
T72FC 001:841 JLINK_WriteMem(0x20000180, 0x0400 Bytes, ...) -- Data:  F5 D3 00 BF 05 48 84 42 02 D3 05 A0 00 F0 7C FA ... -- CPU_WriteMem(1024 bytes @ 0x20000180)  returns 0x400 (0004ms, 0782ms total)
T72FC 001:845 JLINK_WriteReg(R0, 0x08001C00)  returns 0x00 (0000ms, 0782ms total)
T72FC 001:845 JLINK_WriteReg(R1, 0x00000400)  returns 0x00 (0000ms, 0782ms total)
T72FC 001:845 JLINK_WriteReg(R2, 0x20000180)  returns 0x00 (0000ms, 0782ms total)
T72FC 001:845 JLINK_WriteReg(R3, 0x00000000)  returns 0x00 (0000ms, 0782ms total)
T72FC 001:845 JLINK_WriteReg(R4, 0x00000000)  returns 0x00 (0000ms, 0782ms total)
T72FC 001:845 JLINK_WriteReg(R5, 0x00000000)  returns 0x00 (0000ms, 0782ms total)
T72FC 001:845 JLINK_WriteReg(R6, 0x00000000)  returns 0x00 (0000ms, 0782ms total)
T72FC 001:845 JLINK_WriteReg(R7, 0x00000000)  returns 0x00 (0000ms, 0782ms total)
T72FC 001:845 JLINK_WriteReg(R8, 0x00000000)  returns 0x00 (0000ms, 0782ms total)
T72FC 001:845 JLINK_WriteReg(R9, 0x2000017C)  returns 0x00 (0000ms, 0782ms total)
T72FC 001:845 JLINK_WriteReg(R10, 0x00000000)  returns 0x00 (0000ms, 0782ms total)
T72FC 001:845 JLINK_WriteReg(R11, 0x00000000)  returns 0x00 (0000ms, 0782ms total)
T72FC 001:845 JLINK_WriteReg(R12, 0x00000000)  returns 0x00 (0001ms, 0783ms total)
T72FC 001:846 JLINK_WriteReg(R13 (SP), 0x20000800)  returns 0x00 (0000ms, 0783ms total)
T72FC 001:846 JLINK_WriteReg(R14, 0x20000001)  returns 0x00 (0000ms, 0783ms total)
T72FC 001:846 JLINK_WriteReg(R15 (PC), 0x20000108)  returns 0x00 (0000ms, 0783ms total)
T72FC 001:846 JLINK_WriteReg(XPSR, 0x01000000)  returns 0x00 (0000ms, 0783ms total)
T72FC 001:846 JLINK_WriteReg(MSP, 0x20000800)  returns 0x00 (0000ms, 0783ms total)
T72FC 001:846 JLINK_WriteReg(PSP, 0x20000800)  returns 0x00 (0000ms, 0783ms total)
T72FC 001:846 JLINK_WriteReg(CFBP, 0x00000000)  returns 0x00 (0000ms, 0783ms total)
T72FC 001:846 JLINK_SetBPEx(Addr = 0x20000000, Type = 0xFFFFFFF2)  returns 0x0000000D (0000ms, 0783ms total)
T72FC 001:846 JLINK_Go() (0002ms, 0785ms total)
T72FC 001:848 JLINK_IsHalted()  returns FALSE (0001ms, 0786ms total)
T72FC 001:870 JLINK_IsHalted() -- CPU_ReadMem(2 bytes @ 0x20000000)  returns TRUE (0003ms, 0788ms total)
T72FC 001:873 JLINK_ReadReg(R15 (PC))  returns 0x20000000 (0000ms, 0785ms total)
T72FC 001:873 JLINK_ClrBPEx(BPHandle = 0x0000000D)  returns 0x00 (0000ms, 0785ms total)
T72FC 001:873 JLINK_ReadReg(R0)  returns 0x00000000 (0000ms, 0785ms total)
T72FC 001:874 JLINK_WriteMem(0x20000180, 0x0400 Bytes, ...) -- Data:  27 71 20 68 FF F7 99 FE BD E8 F0 81 2B 48 2C 49 ... -- CPU_WriteMem(1024 bytes @ 0x20000180)  returns 0x400 (0004ms, 0789ms total)
T72FC 001:878 JLINK_WriteReg(R0, 0x08002000)  returns 0x00 (0000ms, 0789ms total)
T72FC 001:878 JLINK_WriteReg(R1, 0x00000400)  returns 0x00 (0000ms, 0789ms total)
T72FC 001:878 JLINK_WriteReg(R2, 0x20000180)  returns 0x00 (0000ms, 0789ms total)
T72FC 001:878 JLINK_WriteReg(R3, 0x00000000)  returns 0x00 (0000ms, 0789ms total)
T72FC 001:878 JLINK_WriteReg(R4, 0x00000000)  returns 0x00 (0000ms, 0789ms total)
T72FC 001:878 JLINK_WriteReg(R5, 0x00000000)  returns 0x00 (0000ms, 0789ms total)
T72FC 001:878 JLINK_WriteReg(R6, 0x00000000)  returns 0x00 (0000ms, 0789ms total)
T72FC 001:878 JLINK_WriteReg(R7, 0x00000000)  returns 0x00 (0000ms, 0789ms total)
T72FC 001:878 JLINK_WriteReg(R8, 0x00000000)  returns 0x00 (0000ms, 0789ms total)
T72FC 001:878 JLINK_WriteReg(R9, 0x2000017C)  returns 0x00 (0000ms, 0789ms total)
T72FC 001:878 JLINK_WriteReg(R10, 0x00000000)  returns 0x00 (0000ms, 0789ms total)
T72FC 001:878 JLINK_WriteReg(R11, 0x00000000)  returns 0x00 (0001ms, 0790ms total)
T72FC 001:879 JLINK_WriteReg(R12, 0x00000000)  returns 0x00 (0000ms, 0790ms total)
T72FC 001:879 JLINK_WriteReg(R13 (SP), 0x20000800)  returns 0x00 (0000ms, 0790ms total)
T72FC 001:879 JLINK_WriteReg(R14, 0x20000001)  returns 0x00 (0000ms, 0790ms total)
T72FC 001:879 JLINK_WriteReg(R15 (PC), 0x20000108)  returns 0x00 (0000ms, 0790ms total)
T72FC 001:879 JLINK_WriteReg(XPSR, 0x01000000)  returns 0x00 (0000ms, 0790ms total)
T72FC 001:879 JLINK_WriteReg(MSP, 0x20000800)  returns 0x00 (0000ms, 0790ms total)
T72FC 001:879 JLINK_WriteReg(PSP, 0x20000800)  returns 0x00 (0000ms, 0790ms total)
T72FC 001:879 JLINK_WriteReg(CFBP, 0x00000000)  returns 0x00 (0000ms, 0790ms total)
T72FC 001:879 JLINK_SetBPEx(Addr = 0x20000000, Type = 0xFFFFFFF2)  returns 0x0000000E (0000ms, 0790ms total)
T72FC 001:879 JLINK_Go() (0002ms, 0792ms total)
T72FC 001:881 JLINK_IsHalted()  returns FALSE (0001ms, 0793ms total)
T72FC 001:933 JLINK_IsHalted() -- CPU_ReadMem(2 bytes @ 0x20000000)  returns TRUE (0003ms, 0795ms total)
T72FC 001:936 JLINK_ReadReg(R15 (PC))  returns 0x20000000 (0000ms, 0792ms total)
T72FC 001:936 JLINK_ClrBPEx(BPHandle = 0x0000000E)  returns 0x00 (0000ms, 0792ms total)
T72FC 001:936 JLINK_ReadReg(R0)  returns 0x00000000 (0000ms, 0792ms total)
T72FC 001:937 JLINK_WriteMem(0x20000180, 0x0400 Bytes, ...) -- Data:  80 B2 04 2B 00 D1 C0 B2 4F F0 00 08 23 07 25 D5 ... -- CPU_WriteMem(1024 bytes @ 0x20000180)  returns 0x400 (0004ms, 0796ms total)
T72FC 001:941 JLINK_WriteReg(R0, 0x08002400)  returns 0x00 (0000ms, 0796ms total)
T72FC 001:941 JLINK_WriteReg(R1, 0x00000400)  returns 0x00 (0000ms, 0796ms total)
T72FC 001:941 JLINK_WriteReg(R2, 0x20000180)  returns 0x00 (0000ms, 0796ms total)
T72FC 001:941 JLINK_WriteReg(R3, 0x00000000)  returns 0x00 (0000ms, 0796ms total)
T72FC 001:941 JLINK_WriteReg(R4, 0x00000000)  returns 0x00 (0000ms, 0796ms total)
T72FC 001:941 JLINK_WriteReg(R5, 0x00000000)  returns 0x00 (0000ms, 0796ms total)
T72FC 001:941 JLINK_WriteReg(R6, 0x00000000)  returns 0x00 (0000ms, 0796ms total)
T72FC 001:941 JLINK_WriteReg(R7, 0x00000000)  returns 0x00 (0000ms, 0796ms total)
T72FC 001:941 JLINK_WriteReg(R8, 0x00000000)  returns 0x00 (0000ms, 0796ms total)
T72FC 001:941 JLINK_WriteReg(R9, 0x2000017C)  returns 0x00 (0000ms, 0796ms total)
T72FC 001:941 JLINK_WriteReg(R10, 0x00000000)  returns 0x00 (0000ms, 0796ms total)
T72FC 001:941 JLINK_WriteReg(R11, 0x00000000)  returns 0x00 (0000ms, 0796ms total)
T72FC 001:941 JLINK_WriteReg(R12, 0x00000000)  returns 0x00 (0001ms, 0797ms total)
T72FC 001:942 JLINK_WriteReg(R13 (SP), 0x20000800)  returns 0x00 (0000ms, 0797ms total)
T72FC 001:942 JLINK_WriteReg(R14, 0x20000001)  returns 0x00 (0000ms, 0797ms total)
T72FC 001:942 JLINK_WriteReg(R15 (PC), 0x20000108)  returns 0x00 (0000ms, 0797ms total)
T72FC 001:942 JLINK_WriteReg(XPSR, 0x01000000)  returns 0x00 (0000ms, 0797ms total)
T72FC 001:942 JLINK_WriteReg(MSP, 0x20000800)  returns 0x00 (0000ms, 0797ms total)
T72FC 001:942 JLINK_WriteReg(PSP, 0x20000800)  returns 0x00 (0000ms, 0797ms total)
T72FC 001:942 JLINK_WriteReg(CFBP, 0x00000000)  returns 0x00 (0000ms, 0797ms total)
T72FC 001:942 JLINK_SetBPEx(Addr = 0x20000000, Type = 0xFFFFFFF2)  returns 0x0000000F (0000ms, 0797ms total)
T72FC 001:942 JLINK_Go() (0002ms, 0799ms total)
T72FC 001:944 JLINK_IsHalted()  returns FALSE (0001ms, 0800ms total)
T72FC 001:978 JLINK_IsHalted() -- CPU_ReadMem(2 bytes @ 0x20000000)  returns TRUE (0003ms, 0802ms total)
T72FC 001:981 JLINK_ReadReg(R15 (PC))  returns 0x20000000 (0000ms, 0799ms total)
T72FC 001:981 JLINK_ClrBPEx(BPHandle = 0x0000000F)  returns 0x00 (0000ms, 0799ms total)
T72FC 001:981 JLINK_ReadReg(R0)  returns 0x00000000 (0000ms, 0799ms total)
T72FC 001:982 JLINK_WriteMem(0x20000180, 0x0400 Bytes, ...) -- Data:  10 BD 00 00 F0 31 00 20 1C B5 01 21 80 20 FE F7 ... -- CPU_WriteMem(1024 bytes @ 0x20000180)  returns 0x400 (0004ms, 0803ms total)
T72FC 001:986 JLINK_WriteReg(R0, 0x08002800)  returns 0x00 (0000ms, 0803ms total)
T72FC 001:986 JLINK_WriteReg(R1, 0x00000400)  returns 0x00 (0000ms, 0803ms total)
T72FC 001:986 JLINK_WriteReg(R2, 0x20000180)  returns 0x00 (0000ms, 0803ms total)
T72FC 001:986 JLINK_WriteReg(R3, 0x00000000)  returns 0x00 (0000ms, 0803ms total)
T72FC 001:986 JLINK_WriteReg(R4, 0x00000000)  returns 0x00 (0000ms, 0803ms total)
T72FC 001:986 JLINK_WriteReg(R5, 0x00000000)  returns 0x00 (0000ms, 0803ms total)
T72FC 001:986 JLINK_WriteReg(R6, 0x00000000)  returns 0x00 (0000ms, 0803ms total)
T72FC 001:986 JLINK_WriteReg(R7, 0x00000000)  returns 0x00 (0000ms, 0803ms total)
T72FC 001:986 JLINK_WriteReg(R8, 0x00000000)  returns 0x00 (0000ms, 0803ms total)
T72FC 001:986 JLINK_WriteReg(R9, 0x2000017C)  returns 0x00 (0000ms, 0803ms total)
T72FC 001:986 JLINK_WriteReg(R10, 0x00000000)  returns 0x00 (0000ms, 0803ms total)
T72FC 001:986 JLINK_WriteReg(R11, 0x00000000)  returns 0x00 (0000ms, 0803ms total)
T72FC 001:986 JLINK_WriteReg(R12, 0x00000000)  returns 0x00 (0000ms, 0803ms total)
T72FC 001:987 JLINK_WriteReg(R13 (SP), 0x20000800)  returns 0x00 (0000ms, 0804ms total)
T72FC 001:987 JLINK_WriteReg(R14, 0x20000001)  returns 0x00 (0000ms, 0804ms total)
T72FC 001:987 JLINK_WriteReg(R15 (PC), 0x20000108)  returns 0x00 (0000ms, 0804ms total)
T72FC 001:987 JLINK_WriteReg(XPSR, 0x01000000)  returns 0x00 (0000ms, 0804ms total)
T72FC 001:987 JLINK_WriteReg(MSP, 0x20000800)  returns 0x00 (0000ms, 0804ms total)
T72FC 001:987 JLINK_WriteReg(PSP, 0x20000800)  returns 0x00 (0000ms, 0804ms total)
T72FC 001:987 JLINK_WriteReg(CFBP, 0x00000000)  returns 0x00 (0000ms, 0804ms total)
T72FC 001:987 JLINK_SetBPEx(Addr = 0x20000000, Type = 0xFFFFFFF2)  returns 0x00000010 (0000ms, 0804ms total)
T72FC 001:987 JLINK_Go() (0002ms, 0806ms total)
T72FC 001:989 JLINK_IsHalted()  returns FALSE (0001ms, 0807ms total)
T72FC 002:057 JLINK_IsHalted() -- CPU_ReadMem(2 bytes @ 0x20000000)  returns TRUE (0003ms, 0809ms total)
T72FC 002:060 JLINK_ReadReg(R15 (PC))  returns 0x20000000 (0000ms, 0806ms total)
T72FC 002:060 JLINK_ClrBPEx(BPHandle = 0x00000010)  returns 0x00 (0000ms, 0806ms total)
T72FC 002:060 JLINK_ReadReg(R0)  returns 0x00000000 (0000ms, 0806ms total)
T72FC 002:061 JLINK_WriteMem(0x20000180, 0x0400 Bytes, ...) -- Data:  23 FD FE F7 95 FF 05 20 FF F7 1E FD FE F7 D0 FF ... -- CPU_WriteMem(1024 bytes @ 0x20000180)  returns 0x400 (0004ms, 0810ms total)
T72FC 002:065 JLINK_WriteReg(R0, 0x08002C00)  returns 0x00 (0000ms, 0810ms total)
T72FC 002:065 JLINK_WriteReg(R1, 0x00000400)  returns 0x00 (0000ms, 0810ms total)
T72FC 002:065 JLINK_WriteReg(R2, 0x20000180)  returns 0x00 (0000ms, 0810ms total)
T72FC 002:065 JLINK_WriteReg(R3, 0x00000000)  returns 0x00 (0000ms, 0810ms total)
T72FC 002:065 JLINK_WriteReg(R4, 0x00000000)  returns 0x00 (0000ms, 0810ms total)
T72FC 002:065 JLINK_WriteReg(R5, 0x00000000)  returns 0x00 (0000ms, 0810ms total)
T72FC 002:065 JLINK_WriteReg(R6, 0x00000000)  returns 0x00 (0000ms, 0810ms total)
T72FC 002:065 JLINK_WriteReg(R7, 0x00000000)  returns 0x00 (0000ms, 0810ms total)
T72FC 002:065 JLINK_WriteReg(R8, 0x00000000)  returns 0x00 (0000ms, 0810ms total)
T72FC 002:065 JLINK_WriteReg(R9, 0x2000017C)  returns 0x00 (0000ms, 0810ms total)
T72FC 002:065 JLINK_WriteReg(R10, 0x00000000)  returns 0x00 (0000ms, 0810ms total)
T72FC 002:065 JLINK_WriteReg(R11, 0x00000000)  returns 0x00 (0000ms, 0810ms total)
T72FC 002:065 JLINK_WriteReg(R12, 0x00000000)  returns 0x00 (0000ms, 0810ms total)
T72FC 002:065 JLINK_WriteReg(R13 (SP), 0x20000800)  returns 0x00 (0001ms, 0811ms total)
T72FC 002:066 JLINK_WriteReg(R14, 0x20000001)  returns 0x00 (0000ms, 0811ms total)
T72FC 002:066 JLINK_WriteReg(R15 (PC), 0x20000108)  returns 0x00 (0000ms, 0811ms total)
T72FC 002:066 JLINK_WriteReg(XPSR, 0x01000000)  returns 0x00 (0000ms, 0811ms total)
T72FC 002:066 JLINK_WriteReg(MSP, 0x20000800)  returns 0x00 (0000ms, 0811ms total)
T72FC 002:066 JLINK_WriteReg(PSP, 0x20000800)  returns 0x00 (0000ms, 0811ms total)
T72FC 002:066 JLINK_WriteReg(CFBP, 0x00000000)  returns 0x00 (0000ms, 0811ms total)
T72FC 002:066 JLINK_SetBPEx(Addr = 0x20000000, Type = 0xFFFFFFF2)  returns 0x00000011 (0000ms, 0811ms total)
T72FC 002:066 JLINK_Go() (0002ms, 0813ms total)
T72FC 002:068 JLINK_IsHalted()  returns FALSE (0001ms, 0814ms total)
T72FC 002:100 JLINK_IsHalted() -- CPU_ReadMem(2 bytes @ 0x20000000)  returns TRUE (0003ms, 0816ms total)
T72FC 002:103 JLINK_ReadReg(R15 (PC))  returns 0x20000000 (0000ms, 0813ms total)
T72FC 002:103 JLINK_ClrBPEx(BPHandle = 0x00000011)  returns 0x00 (0000ms, 0813ms total)
T72FC 002:103 JLINK_ReadReg(R0)  returns 0x00000000 (0000ms, 0813ms total)
T72FC 002:104 JLINK_WriteMem(0x20000180, 0x0400 Bytes, ...) -- Data:  20 46 10 BD 18 1C 02 40 2D ED 02 8B AD F5 B6 5D ... -- CPU_WriteMem(1024 bytes @ 0x20000180)  returns 0x400 (0005ms, 0818ms total)
T72FC 002:109 JLINK_WriteReg(R0, 0x08003000)  returns 0x00 (0000ms, 0818ms total)
